v1	V(n002)*I(V1)	I(V1)
0.000000000000000e+000	0.000000e+000	7.603167e-001
1.000000000000000e-004	7.603148e-005	7.603148e-001
2.000000000000000e-004	1.520626e-004	7.603129e-001
3.000000000000000e-004	2.280933e-004	7.603110e-001
4.000000000000000e-004	3.041236e-004	7.603091e-001
5.000000000000000e-004	3.801536e-004	7.603072e-001
6.000000000000001e-004	4.561832e-004	7.603053e-001
7.000000000000001e-004	5.322123e-004	7.603034e-001
8.000000000000002e-004	6.082412e-004	7.603015e-001
9.000000000000002e-004	6.842696e-004	7.602996e-001
1.000000000000000e-003	7.602977e-004	7.602977e-001
1.100000000000000e-003	8.363253e-004	7.602957e-001
1.200000000000000e-003	9.123527e-004	7.602938e-001
1.300000000000000e-003	9.883795e-004	7.602919e-001
1.400000000000000e-003	1.064406e-003	7.602900e-001
1.500000000000001e-003	1.140432e-003	7.602881e-001
1.600000000000001e-003	1.216458e-003	7.602862e-001
1.700000000000001e-003	1.292483e-003	7.602843e-001
1.800000000000001e-003	1.368508e-003	7.602825e-001
1.900000000000001e-003	1.444533e-003	7.602805e-001
2.000000000000001e-003	1.520557e-003	7.602786e-001
2.100000000000000e-003	1.596581e-003	7.602767e-001
2.200000000000000e-003	1.672605e-003	7.602748e-001
2.300000000000000e-003	1.748628e-003	7.602729e-001
2.400000000000000e-003	1.824651e-003	7.602710e-001
2.500000000000000e-003	1.900673e-003	7.602691e-001
2.599999999999999e-003	1.976695e-003	7.602672e-001
2.699999999999999e-003	2.052716e-003	7.602653e-001
2.799999999999999e-003	2.128737e-003	7.602634e-001
2.899999999999999e-003	2.204758e-003	7.602615e-001
2.999999999999999e-003	2.280779e-003	7.602596e-001
3.099999999999999e-003	2.356799e-003	7.602577e-001
3.199999999999998e-003	2.432818e-003	7.602558e-001
3.299999999999998e-003	2.508838e-003	7.602538e-001
3.399999999999998e-003	2.584857e-003	7.602519e-001
3.499999999999998e-003	2.660875e-003	7.602500e-001
3.599999999999998e-003	2.736893e-003	7.602481e-001
3.699999999999998e-003	2.812911e-003	7.602462e-001
3.799999999999997e-003	2.888928e-003	7.602443e-001
3.899999999999997e-003	2.964945e-003	7.602424e-001
3.999999999999998e-003	3.040962e-003	7.602405e-001
4.099999999999998e-003	3.116978e-003	7.602386e-001
4.199999999999998e-003	3.192994e-003	7.602367e-001
4.299999999999998e-003	3.269010e-003	7.602348e-001
4.399999999999999e-003	3.345025e-003	7.602329e-001
4.499999999999999e-003	3.421039e-003	7.602310e-001
4.599999999999999e-003	3.497054e-003	7.602291e-001
4.699999999999999e-003	3.573068e-003	7.602272e-001
4.800000000000000e-003	3.649082e-003	7.602253e-001
4.900000000000000e-003	3.725095e-003	7.602234e-001
5.000000000000000e-003	3.801107e-003	7.602215e-001
5.100000000000000e-003	3.877120e-003	7.602196e-001
5.200000000000001e-003	3.953132e-003	7.602177e-001
5.300000000000001e-003	4.029143e-003	7.602158e-001
5.400000000000001e-003	4.105155e-003	7.602139e-001
5.500000000000001e-003	4.181166e-003	7.602119e-001
5.600000000000002e-003	4.257176e-003	7.602100e-001
5.700000000000002e-003	4.333186e-003	7.602081e-001
5.800000000000002e-003	4.409196e-003	7.602062e-001
5.900000000000003e-003	4.485206e-003	7.602043e-001
6.000000000000003e-003	4.561214e-003	7.602024e-001
6.100000000000003e-003	4.637223e-003	7.602005e-001
6.200000000000003e-003	4.713231e-003	7.601986e-001
6.300000000000004e-003	4.789239e-003	7.601967e-001
6.400000000000004e-003	4.865246e-003	7.601948e-001
6.500000000000004e-003	4.941254e-003	7.601929e-001
6.600000000000004e-003	5.017260e-003	7.601910e-001
6.700000000000005e-003	5.093267e-003	7.601891e-001
6.800000000000005e-003	5.169273e-003	7.601871e-001
6.900000000000005e-003	5.245278e-003	7.601852e-001
7.000000000000005e-003	5.321284e-003	7.601833e-001
7.100000000000006e-003	5.397288e-003	7.601814e-001
7.200000000000006e-003	5.473292e-003	7.601795e-001
7.300000000000006e-003	5.549297e-003	7.601776e-001
7.400000000000006e-003	5.625300e-003	7.601757e-001
7.500000000000007e-003	5.701303e-003	7.601738e-001
7.600000000000007e-003	5.777306e-003	7.601719e-001
7.700000000000007e-003	5.853309e-003	7.601700e-001
7.800000000000007e-003	5.929311e-003	7.601681e-001
7.900000000000008e-003	6.005313e-003	7.601662e-001
8.000000000000007e-003	6.081315e-003	7.601643e-001
8.100000000000007e-003	6.157316e-003	7.601624e-001
8.200000000000006e-003	6.233316e-003	7.601605e-001
8.300000000000005e-003	6.309316e-003	7.601586e-001
8.400000000000005e-003	6.385316e-003	7.601567e-001
8.500000000000004e-003	6.461316e-003	7.601548e-001
8.600000000000004e-003	6.537315e-003	7.601529e-001
8.700000000000003e-003	6.613314e-003	7.601510e-001
8.800000000000002e-003	6.689312e-003	7.601491e-001
8.900000000000002e-003	6.765310e-003	7.601472e-001
9.000000000000001e-003	6.841307e-003	7.601452e-001
9.100000000000000e-003	6.917305e-003	7.601433e-001
9.200000000000000e-003	6.993301e-003	7.601414e-001
9.299999999999999e-003	7.069298e-003	7.601395e-001
9.399999999999999e-003	7.145294e-003	7.601376e-001
9.499999999999998e-003	7.221289e-003	7.601357e-001
9.599999999999997e-003	7.297285e-003	7.601338e-001
9.699999999999997e-003	7.373280e-003	7.601319e-001
9.799999999999996e-003	7.449274e-003	7.601300e-001
9.899999999999996e-003	7.525268e-003	7.601281e-001
9.999999999999995e-003	7.601262e-003	7.601262e-001
1.009999999999999e-002	7.677255e-003	7.601243e-001
1.019999999999999e-002	7.753248e-003	7.601224e-001
1.029999999999999e-002	7.829241e-003	7.601205e-001
1.039999999999999e-002	7.905233e-003	7.601185e-001
1.049999999999999e-002	7.981225e-003	7.601166e-001
1.059999999999999e-002	8.057216e-003	7.601147e-001
1.069999999999999e-002	8.133208e-003	7.601128e-001
1.079999999999999e-002	8.209198e-003	7.601109e-001
1.089999999999999e-002	8.285189e-003	7.601091e-001
1.099999999999999e-002	8.361179e-003	7.601072e-001
1.109999999999999e-002	8.437168e-003	7.601053e-001
1.119999999999999e-002	8.513157e-003	7.601033e-001
1.129999999999999e-002	8.589147e-003	7.601014e-001
1.139999999999999e-002	8.665135e-003	7.600995e-001
1.149999999999999e-002	8.741123e-003	7.600976e-001
1.159999999999999e-002	8.817110e-003	7.600957e-001
1.169999999999999e-002	8.893097e-003	7.600938e-001
1.179999999999998e-002	8.969085e-003	7.600919e-001
1.189999999999998e-002	9.045071e-003	7.600900e-001
1.199999999999998e-002	9.121057e-003	7.600881e-001
1.209999999999998e-002	9.197043e-003	7.600862e-001
1.219999999999998e-002	9.273028e-003	7.600843e-001
1.229999999999998e-002	9.349013e-003	7.600824e-001
1.239999999999998e-002	9.424998e-003	7.600805e-001
1.249999999999998e-002	9.500982e-003	7.600785e-001
1.259999999999998e-002	9.576966e-003	7.600766e-001
1.269999999999998e-002	9.652949e-003	7.600747e-001
1.279999999999998e-002	9.728932e-003	7.600728e-001
1.289999999999998e-002	9.804915e-003	7.600709e-001
1.299999999999998e-002	9.880897e-003	7.600690e-001
1.309999999999998e-002	9.956879e-003	7.600671e-001
1.319999999999998e-002	1.003286e-002	7.600652e-001
1.329999999999998e-002	1.010884e-002	7.600633e-001
1.339999999999997e-002	1.018482e-002	7.600614e-001
1.349999999999997e-002	1.026080e-002	7.600595e-001
1.359999999999997e-002	1.033678e-002	7.600576e-001
1.369999999999997e-002	1.041276e-002	7.600557e-001
1.379999999999997e-002	1.048874e-002	7.600538e-001
1.389999999999997e-002	1.056472e-002	7.600518e-001
1.399999999999997e-002	1.064070e-002	7.600499e-001
1.409999999999997e-002	1.071668e-002	7.600480e-001
1.419999999999997e-002	1.079266e-002	7.600461e-001
1.429999999999997e-002	1.086863e-002	7.600443e-001
1.439999999999997e-002	1.094461e-002	7.600424e-001
1.449999999999997e-002	1.102059e-002	7.600405e-001
1.459999999999997e-002	1.109656e-002	7.600386e-001
1.469999999999997e-002	1.117254e-002	7.600366e-001
1.479999999999997e-002	1.124851e-002	7.600347e-001
1.489999999999997e-002	1.132449e-002	7.600328e-001
1.499999999999997e-002	1.140046e-002	7.600309e-001
1.509999999999996e-002	1.147644e-002	7.600290e-001
1.519999999999996e-002	1.155241e-002	7.600271e-001
1.529999999999996e-002	1.162839e-002	7.600252e-001
1.539999999999996e-002	1.170436e-002	7.600233e-001
1.549999999999996e-002	1.178033e-002	7.600214e-001
1.559999999999996e-002	1.185630e-002	7.600195e-001
1.569999999999996e-002	1.193228e-002	7.600176e-001
1.579999999999996e-002	1.200825e-002	7.600157e-001
1.589999999999996e-002	1.208422e-002	7.600138e-001
1.599999999999996e-002	1.216019e-002	7.600119e-001
1.609999999999996e-002	1.223616e-002	7.600099e-001
1.619999999999996e-002	1.231213e-002	7.600080e-001
1.629999999999996e-002	1.238810e-002	7.600061e-001
1.639999999999996e-002	1.246407e-002	7.600042e-001
1.649999999999996e-002	1.254004e-002	7.600023e-001
1.659999999999996e-002	1.261601e-002	7.600004e-001
1.669999999999995e-002	1.269197e-002	7.599985e-001
1.679999999999995e-002	1.276794e-002	7.599966e-001
1.689999999999995e-002	1.284391e-002	7.599947e-001
1.699999999999995e-002	1.291988e-002	7.599928e-001
1.709999999999995e-002	1.299584e-002	7.599909e-001
1.719999999999995e-002	1.307181e-002	7.599890e-001
1.729999999999995e-002	1.314778e-002	7.599871e-001
1.739999999999995e-002	1.322374e-002	7.599851e-001
1.749999999999995e-002	1.329971e-002	7.599832e-001
1.759999999999995e-002	1.337567e-002	7.599813e-001
1.769999999999995e-002	1.345164e-002	7.599794e-001
1.779999999999995e-002	1.352760e-002	7.599775e-001
1.789999999999995e-002	1.360356e-002	7.599756e-001
1.799999999999995e-002	1.367953e-002	7.599738e-001
1.809999999999995e-002	1.375549e-002	7.599719e-001
1.819999999999995e-002	1.383145e-002	7.599699e-001
1.829999999999995e-002	1.390742e-002	7.599680e-001
1.839999999999994e-002	1.398338e-002	7.599661e-001
1.849999999999994e-002	1.405934e-002	7.599642e-001
1.859999999999994e-002	1.413530e-002	7.599623e-001
1.869999999999994e-002	1.421126e-002	7.599604e-001
1.879999999999994e-002	1.428722e-002	7.599585e-001
1.889999999999994e-002	1.436318e-002	7.599566e-001
1.899999999999994e-002	1.443914e-002	7.599547e-001
1.909999999999994e-002	1.451510e-002	7.599528e-001
1.919999999999994e-002	1.459106e-002	7.599509e-001
1.929999999999994e-002	1.466702e-002	7.599490e-001
1.939999999999994e-002	1.474297e-002	7.599471e-001
1.949999999999994e-002	1.481893e-002	7.599452e-001
1.959999999999994e-002	1.489489e-002	7.599432e-001
1.969999999999994e-002	1.497084e-002	7.599413e-001
1.979999999999994e-002	1.504680e-002	7.599394e-001
1.989999999999994e-002	1.512276e-002	7.599375e-001
1.999999999999993e-002	1.519871e-002	7.599356e-001
2.009999999999993e-002	1.527467e-002	7.599337e-001
2.019999999999993e-002	1.535062e-002	7.599318e-001
2.029999999999993e-002	1.542658e-002	7.599299e-001
2.039999999999993e-002	1.550253e-002	7.599280e-001
2.049999999999993e-002	1.557849e-002	7.599261e-001
2.059999999999993e-002	1.565444e-002	7.599242e-001
2.069999999999993e-002	1.573039e-002	7.599223e-001
2.079999999999993e-002	1.580634e-002	7.599204e-001
2.089999999999993e-002	1.588230e-002	7.599185e-001
2.099999999999993e-002	1.595825e-002	7.599165e-001
2.109999999999993e-002	1.603420e-002	7.599146e-001
2.119999999999993e-002	1.611015e-002	7.599127e-001
2.129999999999993e-002	1.618610e-002	7.599108e-001
2.139999999999993e-002	1.626205e-002	7.599089e-001
2.149999999999993e-002	1.633800e-002	7.599070e-001
2.159999999999993e-002	1.641395e-002	7.599051e-001
2.169999999999992e-002	1.648990e-002	7.599032e-001
2.179999999999992e-002	1.656585e-002	7.599013e-001
2.189999999999992e-002	1.664180e-002	7.598994e-001
2.199999999999992e-002	1.671774e-002	7.598975e-001
2.209999999999992e-002	1.679369e-002	7.598956e-001
2.219999999999992e-002	1.686964e-002	7.598937e-001
2.229999999999992e-002	1.694559e-002	7.598918e-001
2.239999999999992e-002	1.702153e-002	7.598899e-001
2.249999999999992e-002	1.709748e-002	7.598880e-001
2.259999999999992e-002	1.717343e-002	7.598861e-001
2.269999999999992e-002	1.724937e-002	7.598842e-001
2.279999999999992e-002	1.732532e-002	7.598823e-001
2.289999999999992e-002	1.740126e-002	7.598804e-001
2.299999999999992e-002	1.747720e-002	7.598785e-001
2.309999999999992e-002	1.755315e-002	7.598765e-001
2.319999999999992e-002	1.762909e-002	7.598746e-001
2.329999999999992e-002	1.770503e-002	7.598727e-001
2.339999999999991e-002	1.778098e-002	7.598708e-001
2.349999999999991e-002	1.785692e-002	7.598689e-001
2.359999999999991e-002	1.793286e-002	7.598670e-001
2.369999999999991e-002	1.800880e-002	7.598651e-001
2.379999999999991e-002	1.808474e-002	7.598632e-001
2.389999999999991e-002	1.816069e-002	7.598613e-001
2.399999999999991e-002	1.823663e-002	7.598594e-001
2.409999999999991e-002	1.831257e-002	7.598575e-001
2.419999999999991e-002	1.838850e-002	7.598556e-001
2.429999999999991e-002	1.846444e-002	7.598537e-001
2.439999999999991e-002	1.854038e-002	7.598518e-001
2.449999999999991e-002	1.861632e-002	7.598498e-001
2.459999999999991e-002	1.869226e-002	7.598479e-001
2.469999999999991e-002	1.876820e-002	7.598460e-001
2.479999999999991e-002	1.884413e-002	7.598441e-001
2.489999999999991e-002	1.892007e-002	7.598422e-001
2.499999999999990e-002	1.899601e-002	7.598403e-001
2.509999999999990e-002	1.907194e-002	7.598384e-001
2.519999999999990e-002	1.914788e-002	7.598365e-001
2.529999999999990e-002	1.922381e-002	7.598346e-001
2.539999999999990e-002	1.929975e-002	7.598327e-001
2.549999999999990e-002	1.937568e-002	7.598308e-001
2.559999999999990e-002	1.945162e-002	7.598289e-001
2.569999999999990e-002	1.952755e-002	7.598270e-001
2.579999999999990e-002	1.960349e-002	7.598251e-001
2.589999999999990e-002	1.967942e-002	7.598231e-001
2.599999999999990e-002	1.975535e-002	7.598212e-001
2.609999999999990e-002	1.983128e-002	7.598193e-001
2.619999999999990e-002	1.990722e-002	7.598174e-001
2.629999999999990e-002	1.998315e-002	7.598155e-001
2.639999999999990e-002	2.005908e-002	7.598136e-001
2.649999999999990e-002	2.013501e-002	7.598117e-001
2.659999999999990e-002	2.021094e-002	7.598098e-001
2.669999999999989e-002	2.028687e-002	7.598079e-001
2.679999999999989e-002	2.036280e-002	7.598060e-001
2.689999999999989e-002	2.043873e-002	7.598041e-001
2.699999999999989e-002	2.051466e-002	7.598022e-001
2.709999999999989e-002	2.059059e-002	7.598003e-001
2.719999999999989e-002	2.066652e-002	7.597984e-001
2.729999999999989e-002	2.074244e-002	7.597965e-001
2.739999999999989e-002	2.081837e-002	7.597946e-001
2.749999999999989e-002	2.089430e-002	7.597927e-001
2.759999999999989e-002	2.097023e-002	7.597908e-001
2.769999999999989e-002	2.104615e-002	7.597889e-001
2.779999999999989e-002	2.112208e-002	7.597870e-001
2.789999999999989e-002	2.119800e-002	7.597851e-001
2.799999999999989e-002	2.127393e-002	7.597831e-001
2.809999999999989e-002	2.134985e-002	7.597812e-001
2.819999999999989e-002	2.142578e-002	7.597793e-001
2.829999999999988e-002	2.150170e-002	7.597774e-001
2.839999999999988e-002	2.157762e-002	7.597755e-001
2.849999999999988e-002	2.165355e-002	7.597736e-001
2.859999999999988e-002	2.172947e-002	7.597717e-001
2.869999999999988e-002	2.180539e-002	7.597698e-001
2.879999999999988e-002	2.188131e-002	7.597679e-001
2.889999999999988e-002	2.195724e-002	7.597660e-001
2.899999999999988e-002	2.203316e-002	7.597641e-001
2.909999999999988e-002	2.210908e-002	7.597622e-001
2.919999999999988e-002	2.218500e-002	7.597603e-001
2.929999999999988e-002	2.226092e-002	7.597584e-001
2.939999999999988e-002	2.233684e-002	7.597564e-001
2.949999999999988e-002	2.241276e-002	7.597545e-001
2.959999999999988e-002	2.248868e-002	7.597526e-001
2.969999999999988e-002	2.256460e-002	7.597507e-001
2.979999999999988e-002	2.264051e-002	7.597488e-001
2.989999999999988e-002	2.271643e-002	7.597469e-001
2.999999999999987e-002	2.279235e-002	7.597450e-001
3.009999999999987e-002	2.286827e-002	7.597431e-001
3.019999999999987e-002	2.294418e-002	7.597412e-001
3.029999999999987e-002	2.302010e-002	7.597393e-001
3.039999999999987e-002	2.309602e-002	7.597374e-001
3.049999999999987e-002	2.317193e-002	7.597355e-001
3.059999999999987e-002	2.324785e-002	7.597336e-001
3.069999999999987e-002	2.332376e-002	7.597317e-001
3.079999999999987e-002	2.339968e-002	7.597297e-001
3.089999999999987e-002	2.347559e-002	7.597278e-001
3.099999999999987e-002	2.355150e-002	7.597259e-001
3.109999999999987e-002	2.362742e-002	7.597240e-001
3.119999999999987e-002	2.370333e-002	7.597221e-001
3.129999999999987e-002	2.377924e-002	7.597202e-001
3.139999999999987e-002	2.385515e-002	7.597183e-001
3.149999999999988e-002	2.393107e-002	7.597164e-001
3.159999999999988e-002	2.400698e-002	7.597145e-001
3.169999999999988e-002	2.408289e-002	7.597126e-001
3.179999999999988e-002	2.415880e-002	7.597107e-001
3.189999999999989e-002	2.423471e-002	7.597088e-001
3.199999999999989e-002	2.431062e-002	7.597069e-001
3.209999999999989e-002	2.438653e-002	7.597049e-001
3.219999999999990e-002	2.446244e-002	7.597030e-001
3.229999999999990e-002	2.453835e-002	7.597011e-001
3.239999999999990e-002	2.461426e-002	7.596992e-001
3.249999999999990e-002	2.469016e-002	7.596973e-001
3.259999999999991e-002	2.476607e-002	7.596954e-001
3.269999999999991e-002	2.484198e-002	7.596935e-001
3.279999999999991e-002	2.491788e-002	7.596916e-001
3.289999999999992e-002	2.499379e-002	7.596897e-001
3.299999999999992e-002	2.506970e-002	7.596878e-001
3.309999999999992e-002	2.514560e-002	7.596859e-001
3.319999999999992e-002	2.522151e-002	7.596840e-001
3.329999999999993e-002	2.529742e-002	7.596821e-001
3.339999999999993e-002	2.537332e-002	7.596802e-001
3.349999999999993e-002	2.544922e-002	7.596783e-001
3.359999999999994e-002	2.552513e-002	7.596764e-001
3.369999999999994e-002	2.560103e-002	7.596745e-001
3.379999999999994e-002	2.567693e-002	7.596726e-001
3.389999999999994e-002	2.575284e-002	7.596707e-001
3.399999999999995e-002	2.582874e-002	7.596688e-001
3.409999999999995e-002	2.590464e-002	7.596669e-001
3.419999999999995e-002	2.598054e-002	7.596650e-001
3.429999999999996e-002	2.605644e-002	7.596630e-001
3.439999999999996e-002	2.613234e-002	7.596611e-001
3.449999999999996e-002	2.620824e-002	7.596592e-001
3.459999999999996e-002	2.628414e-002	7.596573e-001
3.469999999999997e-002	2.636004e-002	7.596554e-001
3.479999999999997e-002	2.643594e-002	7.596535e-001
3.489999999999997e-002	2.651184e-002	7.596516e-001
3.499999999999998e-002	2.658774e-002	7.596497e-001
3.509999999999998e-002	2.666364e-002	7.596478e-001
3.519999999999998e-002	2.673953e-002	7.596459e-001
3.529999999999998e-002	2.681543e-002	7.596440e-001
3.539999999999999e-002	2.689133e-002	7.596421e-001
3.549999999999999e-002	2.696723e-002	7.596402e-001
3.559999999999999e-002	2.704312e-002	7.596382e-001
3.570000000000000e-002	2.711902e-002	7.596363e-001
3.580000000000000e-002	2.719491e-002	7.596344e-001
3.590000000000000e-002	2.727081e-002	7.596325e-001
3.600000000000000e-002	2.734670e-002	7.596306e-001
3.610000000000001e-002	2.742260e-002	7.596287e-001
3.620000000000001e-002	2.749849e-002	7.596268e-001
3.630000000000001e-002	2.757438e-002	7.596249e-001
3.640000000000002e-002	2.765028e-002	7.596230e-001
3.650000000000002e-002	2.772617e-002	7.596211e-001
3.660000000000002e-002	2.780206e-002	7.596192e-001
3.670000000000002e-002	2.787795e-002	7.596173e-001
3.680000000000003e-002	2.795385e-002	7.596154e-001
3.690000000000003e-002	2.802974e-002	7.596135e-001
3.700000000000003e-002	2.810563e-002	7.596115e-001
3.710000000000004e-002	2.818152e-002	7.596096e-001
3.720000000000004e-002	2.825741e-002	7.596077e-001
3.730000000000004e-002	2.833330e-002	7.596058e-001
3.740000000000004e-002	2.840919e-002	7.596039e-001
3.750000000000005e-002	2.848508e-002	7.596020e-001
3.760000000000005e-002	2.856096e-002	7.596001e-001
3.770000000000005e-002	2.863685e-002	7.595982e-001
3.780000000000006e-002	2.871274e-002	7.595963e-001
3.790000000000006e-002	2.878863e-002	7.595944e-001
3.800000000000006e-002	2.886451e-002	7.595925e-001
3.810000000000006e-002	2.894040e-002	7.595906e-001
3.820000000000007e-002	2.901629e-002	7.595887e-001
3.830000000000007e-002	2.909217e-002	7.595868e-001
3.840000000000007e-002	2.916806e-002	7.595848e-001
3.850000000000008e-002	2.924394e-002	7.595829e-001
3.860000000000008e-002	2.931983e-002	7.595810e-001
3.870000000000008e-002	2.939571e-002	7.595791e-001
3.880000000000008e-002	2.947160e-002	7.595772e-001
3.890000000000009e-002	2.954748e-002	7.595753e-001
3.900000000000009e-002	2.962336e-002	7.595734e-001
