time	V(n001)	V(n004)	I(L4)	I(R1)
0.000000000000000e+000	0.000000e+000	0.000000e+000	0.000000e+000	0.000000e+000
1.466584418990146e-008	1.876567e-002	1.420569e-006	-3.499555e-010	1.416998e-008
2.933168837980291e-008	3.753134e-002	5.639254e-006	1.096048e-012	5.639264e-008
4.399753256970437e-008	5.629701e-002	1.265605e-005	1.053155e-009	1.266680e-007
5.866337675960582e-008	7.506268e-002	2.247097e-005	2.806221e-009	2.249960e-007
7.332922094950727e-008	9.382835e-002	3.508400e-005	5.260294e-009	3.513768e-007
8.799506513940873e-008	1.125940e-001	5.049515e-005	8.415374e-009	5.058102e-007
1.026609093293102e-007	1.313597e-001	6.870442e-005	1.227146e-008	6.882963e-007
1.280188124754927e-007	1.638064e-001	1.066973e-004	2.369118e-008	1.069391e-006
1.596842915035786e-007	2.043239e-001	1.657387e-004	4.572601e-008	1.662053e-006
1.991960900915205e-007	2.548812e-001	2.573852e-004	8.815607e-008	2.582849e-006
2.485585403673048e-007	3.180429e-001	3.997505e-004	1.698246e-007	4.014839e-006
3.102174752372409e-007	3.969386e-001	6.207415e-004	3.266781e-007	6.240765e-006
3.873198236695002e-007	4.955948e-001	9.639148e-004	6.275033e-007	9.703223e-006
4.837671893392866e-007	6.190040e-001	1.490622e-003	1.188227e-006	1.502758e-005
5.837671893392866e-007	7.469589e-001	2.147976e-003	2.020026e-006	2.168613e-005
6.837671893392866e-007	8.749138e-001	2.921905e-003	3.158047e-006	2.954175e-005
7.837671893392866e-007	1.002869e+000	3.811874e-003	4.646383e-006	3.859365e-005
8.837671893392866e-007	1.130824e+000	4.816328e-003	6.524171e-006	4.883027e-005
9.837671893392866e-007	1.258779e+000	5.933750e-003	8.827889e-006	6.024025e-005
1.083767189339287e-006	1.386734e+000	7.162668e-003	1.159151e-005	7.281233e-005
1.183767189339287e-006	1.514688e+000	8.501644e-003	1.484663e-005	8.653544e-005
1.283767189339286e-006	1.642643e+000	9.949280e-003	1.862263e-005	1.013986e-004
1.383767189339286e-006	1.770598e+000	1.150421e-002	2.294676e-005	1.173911e-004
1.483767189339286e-006	1.898553e+000	1.316511e-002	2.784431e-005	1.345021e-004
1.583767189339286e-006	2.026508e+000	1.493067e-002	3.333867e-005	1.527212e-004
1.683767189339286e-006	2.154463e+000	1.679963e-002	3.945147e-005	1.720379e-004
1.783767189339286e-006	2.282418e+000	1.877074e-002	4.620269e-005	1.924420e-004
1.883767189339286e-006	2.410373e+000	2.084281e-002	5.361073e-005	2.139233e-004
1.983767189339286e-006	2.538328e+000	2.301463e-002	6.169249e-005	2.364716e-004
2.083767189339286e-006	2.666283e+000	2.528507e-002	7.046349e-005	2.600772e-004
2.183767189339285e-006	2.794238e+000	2.765297e-002	7.993793e-005	2.847302e-004
2.283767189339285e-006	2.922192e+000	3.011724e-002	9.012878e-005	3.104209e-004
2.383767189339285e-006	3.050147e+000	3.267679e-002	1.010478e-004	3.371396e-004
2.483767189339285e-006	3.178102e+000	3.533055e-002	1.127058e-004	3.648770e-004
2.583767189339285e-006	3.306057e+000	3.807747e-002	1.251123e-004	3.936236e-004
2.683767189339285e-006	3.434012e+000	4.091654e-002	1.382760e-004	4.233702e-004
2.783767189339285e-006	3.561967e+000	4.384675e-002	1.522048e-004	4.541076e-004
2.983767189339285e-006	3.817877e+000	4.997666e-002	1.823840e-004	5.185184e-004
3.183767189339284e-006	4.073786e+000	5.645954e-002	2.156958e-004	5.867847e-004
3.383767189339284e-006	4.329696e+000	6.328797e-002	2.521744e-004	6.588366e-004
3.583767189339284e-006	4.585606e+000	7.045481e-002	2.918437e-004	7.346056e-004
3.783767189339284e-006	4.841515e+000	7.795312e-002	3.347188e-004	8.140247e-004
4.083767189339283e-006	5.225379e+000	8.980750e-002	4.050560e-004	9.398537e-004
4.383767189339283e-006	5.609244e+000	1.023709e-001	4.826162e-004	1.073532e-003
4.683767189339283e-006	5.993108e+000	1.156224e-001	5.673661e-004	1.214849e-003
4.983767189339282e-006	6.376972e+000	1.295421e-001	6.592482e-004	1.363601e-003
5.540910046482141e-006	7.089862e+000	1.573489e-001	8.506026e-004	1.661576e-003
6.098052903624999e-006	7.802752e+000	1.870239e-001	1.063637e-003	1.980586e-003
6.655195760767858e-006	8.515642e+000	2.185670e-001	1.298351e-003	2.320633e-003
7.212338617910716e-006	9.228531e+000	2.519783e-001	1.554745e-003	2.681716e-003
7.769481475053574e-006	9.941420e+000	2.872577e-001	1.832818e-003	3.063835e-003
8.326624332196432e-006	1.065431e+001	3.244052e-001	2.132571e-003	3.466990e-003
8.883767189339288e-006	1.136720e+001	3.634210e-001	2.454004e-003	3.891181e-003
9.769481475053580e-006	1.250051e+001	4.288645e-001	3.006936e-003	4.604344e-003
1.065519576076787e-005	1.363381e+001	4.972996e-001	3.596167e-003	5.351714e-003
1.154091004648217e-005	1.476712e+001	5.687264e-001	4.221698e-003	6.133292e-003
1.242662433219646e-005	1.590042e+001	6.431448e-001	4.883528e-003	6.949076e-003
1.331233861791075e-005	1.703372e+001	7.205548e-001	5.581658e-003	7.799068e-003
1.419805290362504e-005	1.816702e+001	8.009564e-001	6.316087e-003	8.683267e-003
1.508376718933933e-005	1.930032e+001	8.843497e-001	7.086815e-003	9.601673e-003
1.666948147505361e-005	2.132929e+001	1.039804e+000	8.541975e-003	1.131678e-002
1.825519576076788e-005	2.335824e+001	1.199725e+000	1.005161e-002	1.308468e-002
1.984091004648215e-005	2.538719e+001	1.364112e+000	1.161573e-002	1.490539e-002
2.142662433219642e-005	2.741612e+001	1.532966e+000	1.323432e-002	1.677889e-002
2.301233861791069e-005	2.944505e+001	1.706286e+000	1.490740e-002	1.870519e-002
2.459805290362496e-005	3.147397e+001	1.884073e+000	1.663495e-002	2.068429e-002
2.618376718933923e-005	3.350288e+001	2.066326e+000	1.841698e-002	2.271619e-002
2.982662433219644e-005	3.816385e+001	2.495645e+000	2.264053e-002	2.751420e-002
3.346948147505366e-005	4.282474e+001	2.929964e+000	2.692508e-002	3.238455e-002
3.711233861791087e-005	4.748553e+001	3.369282e+000	3.127065e-002	3.732722e-002
4.075519576076808e-005	5.214622e+001	3.813599e+000	3.567722e-002	4.234222e-002
4.439805290362529e-005	5.680683e+001	4.262915e+000	4.014479e-002	4.742956e-002
4.804091004648250e-005	6.146733e+001	4.717231e+000	4.467338e-002	5.258922e-002
5.168376718933971e-005	6.612775e+001	5.176546e+000	4.926297e-002	5.782122e-002
5.848376718933987e-005	7.482694e+001	6.032512e+000	5.781292e-002	6.761675e-002
6.528376718934004e-005	8.352551e+001	6.889285e+000	6.637286e-002	7.747975e-002
7.208376718934021e-005	9.222344e+001	7.746865e+000	7.494279e-002	8.741022e-002
7.888376718934037e-005	1.009207e+002	8.605252e+000	8.352271e-002	9.740815e-002
8.568376718934054e-005	1.096174e+002	9.464446e+000	9.211263e-002	1.074736e-001
9.248376718934070e-005	1.183134e+002	1.032445e+001	1.007125e-001	1.176064e-001
9.928376718934086e-005	1.270088e+002	1.118526e+001	1.093224e-001	1.278068e-001
9.938376718934086e-005	1.271367e+002	1.119790e+001	1.094489e-001	1.279570e-001
1.139980529036269e-004	1.458226e+002	1.304603e+001	1.279303e-001	1.500582e-001
1.286123386179130e-004	1.645028e+002	1.489360e+001	1.464064e-001	1.724231e-001
1.432266243321991e-004	1.831771e+002	1.674064e+001	1.648771e-001	1.950520e-001
1.578409100464852e-004	2.018455e+002	1.858712e+001	1.833425e-001	2.179447e-001
1.724551957607712e-004	2.205081e+002	2.043306e+001	2.018025e-001	2.411012e-001
1.870694814750573e-004	2.391649e+002	2.227845e+001	2.202572e-001	2.645216e-001
2.016837671893433e-004	2.578158e+002	2.412330e+001	2.387065e-001	2.882058e-001
2.017837671893433e-004	2.579433e+002	2.413592e+001	2.388327e-001	2.883688e-001
2.163980529036294e-004	2.765864e+002	2.597997e+001	2.572741e-001	3.123159e-001
2.310123386179155e-004	2.952196e+002	2.782307e+001	2.757061e-001	3.365216e-001
2.456266243322016e-004	3.138430e+002	2.966522e+001	2.941286e-001	3.609858e-001
2.602409100464876e-004	3.324566e+002	3.150641e+001	3.125416e-001	3.857087e-001
2.748551957607737e-004	3.510604e+002	3.334665e+001	3.309452e-001	4.106901e-001
2.894694814750598e-004	3.696543e+002	3.518593e+001	3.493393e-001	4.359301e-001
3.040837671893458e-004	3.882385e+002	3.702426e+001	3.677239e-001	4.614287e-001
3.041837671893458e-004	3.883656e+002	3.703683e+001	3.678496e-001	4.616041e-001
3.187980529036319e-004	4.069379e+002	3.887400e+001	3.862227e-001	4.873605e-001
3.334123386179180e-004	4.254965e+002	4.070982e+001	4.045824e-001	5.133700e-001
3.480266243322041e-004	4.440413e+002	4.254429e+001	4.229287e-001	5.396326e-001
3.626409100464901e-004	4.625723e+002	4.437742e+001	4.412617e-001	5.661483e-001
3.772551957607762e-004	4.810896e+002	4.620921e+001	4.595812e-001	5.929171e-001
3.918694814750623e-004	4.995931e+002	4.803964e+001	4.778874e-001	6.199390e-001
4.064837671893483e-004	5.180828e+002	4.986874e+001	4.961802e-001	6.472140e-001
4.065837671893483e-004	5.182092e+002	4.988124e+001	4.963053e-001	6.474015e-001
4.211980529036328e-004	5.366831e+002	5.170878e+001	5.145827e-001	6.749286e-001
4.358123386179173e-004	5.551394e+002	5.353459e+001	5.328427e-001	7.027029e-001
4.504266243322017e-004	5.735779e+002	5.535866e+001	5.510855e-001	7.307245e-001
4.650409100464862e-004	5.919987e+002	5.718099e+001	5.693111e-001	7.589934e-001
4.796551957607707e-004	6.104019e+002	5.900159e+001	5.875193e-001	7.875095e-001
4.942694814750552e-004	6.287873e+002	6.082046e+001	6.057103e-001	8.162728e-001
5.088837671893396e-004	6.471551e+002	6.263759e+001	6.238841e-001	8.452834e-001
5.089837671893396e-004	6.472807e+002	6.265002e+001	6.240084e-001	8.454828e-001
5.235980529036177e-004	6.656287e+002	6.446521e+001	6.421627e-001	8.747394e-001
5.382123386178959e-004	6.839550e+002	6.627828e+001	6.602960e-001	9.042370e-001
5.528266243321740e-004	7.022598e+002	6.808923e+001	6.784081e-001	9.339757e-001
5.674409100464522e-004	7.205430e+002	6.989805e+001	6.964990e-001	9.639554e-001
5.820551957607304e-004	7.388046e+002	7.170476e+001	7.145689e-001	9.941761e-001
5.966694814750085e-004	7.570446e+002	7.350934e+001	7.326176e-001	1.024638e+000
6.112837671892866e-004	7.752631e+002	7.531180e+001	7.506452e-001	1.055341e+000
6.113837671892866e-004	7.753876e+002	7.532413e+001	7.507684e-001	1.055552e+000
6.259980529035647e-004	7.935823e+002	7.712426e+001	7.687728e-001	1.086494e+000
6.406123386178429e-004	8.117516e+002	7.892189e+001	7.867521e-001	1.117671e+000
6.552266243321210e-004	8.298954e+002	8.071702e+001	8.047065e-001	1.149082e+000
6.698409100463991e-004	8.480137e+002	8.250964e+001	8.226360e-001	1.180728e+000
6.844551957606774e-004	8.661065e+002	8.429975e+001	8.405405e-001	1.212608e+000
6.990694814749555e-004	8.841739e+002	8.608737e+001	8.584200e-001	1.244722e+000
7.136837671892336e-004	9.022158e+002	8.787247e+001	8.762746e-001	1.277071e+000
7.137837671892335e-004	9.023392e+002	8.788468e+001	8.763967e-001	1.277293e+000
7.283980529035117e-004	9.203535e+002	8.966708e+001	8.942241e-001	1.309875e+000
7.430123386177899e-004	9.383386e+002	9.144659e+001	9.120229e-001	1.342684e+000
7.576266243320680e-004	9.562943e+002	9.322322e+001	9.297929e-001	1.375721e+000
7.722409100463461e-004	9.742207e+002	9.499696e+001	9.475341e-001	1.408985e+000
7.868551957606243e-004	9.921179e+002	9.676783e+001	9.652465e-001	1.442477e+000
8.014694814749025e-004	1.009986e+003	9.853581e+001	9.829302e-001	1.476197e+000
8.160837671891806e-004	1.027824e+003	1.003009e+002	1.000585e+000	1.510143e+000
8.161837671891805e-004	1.027946e+003	1.003130e+002	1.000706e+000	1.510376e+000
8.307980529034586e-004	1.045753e+003	1.020750e+002	1.018330e+000	1.544549e+000
8.454123386177369e-004	1.063527e+003	1.038337e+002	1.035921e+000	1.578941e+000
8.600266243320150e-004	1.081268e+003	1.055892e+002	1.053481e+000	1.613554e+000
8.746409100462931e-004	1.098976e+003	1.073414e+002	1.071007e+000	1.648388e+000
8.892551957605713e-004	1.116651e+003	1.090904e+002	1.088501e+000	1.683441e+000
9.038694814748494e-004	1.134293e+003	1.108361e+002	1.105963e+000	1.718715e+000
9.184837671891275e-004	1.151901e+003	1.125786e+002	1.123392e+000	1.754209e+000
9.185837671891275e-004	1.152021e+003	1.125905e+002	1.123511e+000	1.754452e+000
1.020983767189123e-003	1.274380e+003	1.246989e+002	1.244629e+000	2.009156e+000
1.123383767189181e-003	1.394840e+003	1.366202e+002	1.363879e+000	2.274106e+000
1.225783767189239e-003	1.513221e+003	1.483366e+002	1.481083e+000	2.548906e+000
1.328183767189297e-003	1.629348e+003	1.598307e+002	1.596068e+000	2.833147e+000
1.430583767189355e-003	1.743047e+003	1.710853e+002	1.708661e+000	3.126402e+000
1.532983767189413e-003	1.854148e+003	1.820836e+002	1.818695e+000	3.428234e+000
1.635383767189471e-003	1.962486e+003	1.928093e+002	1.926006e+000	3.738192e+000
1.737783767189529e-003	2.067901e+003	2.032465e+002	2.030434e+000	4.055811e+000
1.840183767189587e-003	2.170234e+003	2.133794e+002	2.131823e+000	4.380619e+000
1.942583767189645e-003	2.269333e+003	2.231931e+002	2.230023e+000	4.712129e+000
2.044983767189504e-003	2.365051e+003	2.326729e+002	2.324886e+000	5.049846e+000
2.147383767189340e-003	2.457244e+003	2.418047e+002	2.416273e+000	5.393265e+000
2.249783767189176e-003	2.545777e+003	2.505749e+002	2.504045e+000	5.741874e+000
2.352183767189011e-003	2.630515e+003	2.589703e+002	2.588074e+000	6.095151e+000
2.454583767188847e-003	2.711334e+003	2.669786e+002	2.668233e+000	6.452569e+000
2.556983767188683e-003	2.788113e+003	2.745878e+002	2.744402e+000	6.813594e+000
2.659383767188519e-003	2.860738e+003	2.817865e+002	2.816470e+000	7.177687e+000
2.761783767188355e-003	2.929100e+003	2.885640e+002	2.884327e+000	7.544304e+000
2.864183767188191e-003	2.993097e+003	2.949102e+002	2.947874e+000	7.912897e+000
2.966583767188027e-003	3.052634e+003	3.008156e+002	3.007015e+000	8.282915e+000
3.068983767187863e-003	3.107623e+003	3.062716e+002	3.061662e+000	8.653806e+000
3.171383767187699e-003	3.157980e+003	3.112698e+002	3.111734e+000	9.025016e+000
3.273783767187535e-003	3.203633e+003	3.158029e+002	3.157156e+000	9.395990e+000
3.376183767187371e-003	3.244512e+003	3.198641e+002	3.197861e+000	9.766175e+000
3.478583767187207e-003	3.280556e+003	3.234474e+002	3.233788e+000	1.013502e+001
3.580983767187043e-003	3.311712e+003	3.265475e+002	3.264882e+000	1.050197e+001
3.683383767186879e-003	3.337933e+003	3.291596e+002	3.291099e+000	1.086647e+001
3.785783767186715e-003	3.359180e+003	3.312800e+002	3.312399e+000	1.122799e+001
3.888183767186551e-003	3.375422e+003	3.329054e+002	3.328750e+000	1.158599e+001
3.990583767186752e-003	3.386635e+003	3.340334e+002	3.340127e+000	1.193992e+001
4.092983767187032e-003	3.392801e+003	3.346625e+002	3.346515e+000	1.228927e+001
4.195383767187312e-003	3.393911e+003	3.347915e+002	3.347903e+000	1.263350e+001
4.297783767187592e-003	3.389964e+003	3.344203e+002	3.344290e+000	1.297211e+001
4.400183767187873e-003	3.380966e+003	3.335496e+002	3.335680e+000	1.330458e+001
4.502583767188153e-003	3.366930e+003	3.321805e+002	3.322086e+000	1.363043e+001
4.604983767188433e-003	3.347878e+003	3.303152e+002	3.303529e+000	1.394916e+001
4.707383767188713e-003	3.323836e+003	3.279563e+002	3.280037e+000	1.426029e+001
4.809783767188993e-003	3.294842e+003	3.251074e+002	3.251644e+000	1.456338e+001
4.912183767189273e-003	3.260938e+003	3.217728e+002	3.218393e+000	1.485795e+001
5.014583767189553e-003	3.222175e+003	3.179575e+002	3.180333e+000	1.514357e+001
5.116983767189833e-003	3.178611e+003	3.136670e+002	3.137521e+000	1.541982e+001
5.219383767190113e-003	3.130311e+003	3.089079e+002	3.090021e+000	1.568628e+001
5.321783767190393e-003	3.077346e+003	3.036871e+002	3.037903e+000	1.594254e+001
5.424183767190673e-003	3.019795e+003	2.980125e+002	2.981246e+000	1.618824e+001
5.526583767190953e-003	2.957745e+003	2.918926e+002	2.920133e+000	1.642300e+001
5.628983767191233e-003	2.891288e+003	2.853364e+002	2.854656e+000	1.664647e+001
5.731383767191513e-003	2.820522e+003	2.783537e+002	2.784913e+000	1.685831e+001
5.833783767191793e-003	2.745554e+003	2.709550e+002	2.711006e+000	1.705822e+001
5.936183767192073e-003	2.666494e+003	2.631512e+002	2.633047e+000	1.724588e+001
6.038583767192353e-003	2.583462e+003	2.549540e+002	2.551151e+000	1.742102e+001
6.140983767192633e-003	2.496579e+003	2.463755e+002	2.465441e+000	1.758338e+001
6.243383767192913e-003	2.405977e+003	2.374287e+002	2.376045e+000	1.773271e+001
6.345783767193193e-003	2.311790e+003	2.281268e+002	2.283094e+000	1.786879e+001
6.448183767193473e-003	2.214157e+003	2.184836e+002	2.186728e+000	1.799141e+001
6.550583767193753e-003	2.113226e+003	2.085136e+002	2.087092e+000	1.810040e+001
6.652983767194034e-003	2.009145e+003	1.982315e+002	1.984332e+000	1.819558e+001
6.755383767194314e-003	1.902071e+003	1.876528e+002	1.878602e+000	1.827682e+001
6.857783767194594e-003	1.792163e+003	1.767932e+002	1.770060e+000	1.834399e+001
6.960183767194874e-003	1.679584e+003	1.656688e+002	1.658868e+000	1.839699e+001
7.062583767195154e-003	1.564503e+003	1.542962e+002	1.545190e+000	1.843574e+001
7.164983767195434e-003	1.447090e+003	1.426925e+002	1.429197e+000	1.846018e+001
7.267383767195714e-003	1.327521e+003	1.308748e+002	1.311062e+000	1.847027e+001
7.369783767195994e-003	1.205974e+003	1.188608e+002	1.190959e+000	1.846600e+001
7.472183767196274e-003	1.082630e+003	1.066683e+002	1.069070e+000	1.844737e+001
7.574583767196554e-003	9.576723e+002	9.431566e+001	9.455737e-001	1.841441e+001
7.676983767196834e-003	8.312880e+002	8.182114e+001	8.206558e-001	1.836717e+001
7.779383767197114e-003	7.036650e+002	6.920341e+001	6.945019e-001	1.830571e+001
7.881783767196794e-003	5.749935e+002	5.648125e+001	5.673003e-001	1.823013e+001
7.984183767196186e-003	4.454652e+002	4.367363e+001	4.392402e-001	1.814053e+001
8.086583767195578e-003	3.152731e+002	3.079962e+001	3.105126e-001	1.803705e+001
8.188983767194969e-003	1.846112e+002	1.787842e+001	1.813093e-001	1.791985e+001
8.291383767194361e-003	5.367430e+001	4.929278e+000	5.182281e-002	1.778909e+001
8.298112338622894e-003	4.506554e+001	4.077880e+000	4.330902e-002	1.778002e+001
8.304840910051424e-003	3.645662e+001	3.226463e+000	3.479503e-002	1.777090e+001
8.311569481479956e-003	2.784755e+001	2.375028e+000	2.628084e-002	1.776173e+001
8.318298052908487e-003	1.923833e+001	1.523575e+000	1.776645e-002	1.775249e+001
8.325026624337019e-003	1.062896e+001	6.721043e-001	9.251869e-003	1.774320e+001
8.331755195765549e-003	2.019443e+000	-1.793851e-001	7.370867e-004	1.773385e+001
8.338483767194082e-003	-6.590230e+000	-1.030893e+000	-7.777893e-003	1.772444e+001
8.393783767193753e-003	-7.734261e+001	-8.028513e+000	-7.775394e-002	1.764496e+001
8.496183767193145e-003	-2.082443e+002	-2.097564e+001	-2.072278e-001	1.748769e+001
8.598583767192537e-003	-3.388357e+002	-3.389282e+001	-3.364060e-001	1.731751e+001
8.700983767191929e-003	-4.689221e+002	-4.676080e+001	-4.650959e-001	1.713466e+001
8.803383767191321e-003	-5.983099e+002	-5.956041e+001	-5.931058e-001	1.693942e+001
8.905783767190712e-003	-7.268061e+002	-7.227256e+001	-7.202449e-001	1.673208e+001
9.008183767190104e-003	-8.542194e+002	-8.487833e+001	-8.463239e-001	1.651294e+001
9.110583767189496e-003	-9.803597e+002	-9.735892e+001	-9.711548e-001	1.628233e+001
9.212983767188888e-003	-1.105039e+003	-1.096957e+002	-1.094552e+000	1.604060e+001
9.315383767188280e-003	-1.228072e+003	-1.218704e+002	-1.216331e+000	1.578810e+001
9.417783767187672e-003	-1.349275e+003	-1.338648e+002	-1.336310e+000	1.552521e+001
9.520183767187064e-003	-1.468468e+003	-1.456610e+002	-1.454311e+000	1.525231e+001
9.622583767186456e-003	-1.585472e+003	-1.572415e+002	-1.570158e+000	1.496981e+001
9.724983767185847e-003	-1.700114e+003	-1.685889e+002	-1.683679e+000	1.467814e+001
9.827383767185239e-003	-1.812223e+003	-1.796865e+002	-1.794704e+000	1.437772e+001
9.929783767184631e-003	-1.921631e+003	-1.905176e+002	-1.903067e+000	1.406901e+001
1.003218376718402e-002	-2.028176e+003	-2.010661e+002	-2.008608e+000	1.375245e+001
1.013458376718342e-002	-2.131699e+003	-2.113163e+002	-2.111169e+000	1.342853e+001
1.023698376718281e-002	-2.232045e+003	-2.212530e+002	-2.210597e+000	1.309772e+001
1.033938376718220e-002	-2.329066e+003	-2.308612e+002	-2.306744e+000	1.276051e+001
1.044178376718159e-002	-2.422616e+003	-2.401268e+002	-2.399467e+000	1.241741e+001
1.054418376718098e-002	-2.512556e+003	-2.490359e+002	-2.488628e+000	1.206892e+001
1.064658376718037e-002	-2.598752e+003	-2.575751e+002	-2.574093e+000	1.171556e+001
1.074898376717977e-002	-2.681076e+003	-2.657319e+002	-2.655736e+000	1.135786e+001
1.085138376717916e-002	-2.759405e+003	-2.734940e+002	-2.733434e+000	1.099635e+001
